! peters_01_0605 B12 channel thru response
#        HZ        S              RI          R       50
5.00000000e+007  6.927583120837e-002 -2.199597841400e-002  2.133086062907e-001 -9.113926831867e-001  6.878017250384e-002  1.585079680463e-002 -5.407356063621e-003  2.258340187221e-003 
                 2.131639470075e-001 -9.112016168254e-001  6.890772715614e-002 -1.692988444069e-002 -5.394572663626e-003  2.064161276854e-003  6.933211830372e-002  1.496597516098e-002 
                 6.863733860765e-002  1.578033373723e-002 -5.232561483269e-003  2.047794258173e-003  6.404518231542e-002 -2.731544894716e-002  2.129254362165e-001 -9.147321900868e-001 
                -5.341712615169e-003  2.149574454850e-003  6.933705898205e-002  1.467012732461e-002  2.128644501517e-001 -9.150851977552e-001  6.383835396029e-002 -1.626172477447e-002 
6.00000000e+007  6.662905133263e-002 -3.474896882662e-002 -2.977180442229e-002 -9.289500460146e-001  7.703520345980e-002 -1.993777546920e-003 -5.165516087521e-003  3.747981796856e-003 
                -2.961282754897e-002 -9.287029993865e-001  6.701960142342e-002 -2.774345418376e-002 -4.999218286783e-003  3.268722307124e-003  7.719487317458e-002 -3.451599565493e-003 
                 7.683590382042e-002 -1.884082030955e-003 -4.929967293991e-003  3.465270332915e-003  5.960577877727e-002 -3.596386188043e-002 -3.164742913946e-002 -9.309992602563e-001 
                -5.113929444947e-003  3.733892022020e-003  7.716336293552e-002 -3.394711251541e-003 -3.163916687757e-002 -9.321231885965e-001  6.364805367587e-002 -2.608522683959e-002 
7.00000000e+007  6.047835706728e-002 -4.662106144697e-002 -2.665322628874e-001 -8.835448123786e-001  7.722322265900e-002 -2.186873298020e-002 -4.393254666321e-003  5.032068504785e-003 
                -2.662840215242e-001 -8.835371498386e-001  6.293513916685e-002 -3.777399977564e-002 -4.222318315641e-003  4.423262714491e-003  7.686655708204e-002 -2.360380654372e-002 
                 7.684741724902e-002 -2.184870502237e-002 -4.268870951340e-003  4.393701947198e-003  5.672606527385e-002 -4.533472151174e-002 -2.685257013289e-001 -8.859759016761e-001 
                -4.358959654383e-003  5.026119749017e-003  7.685407784973e-002 -2.362739794957e-002 -2.695522521964e-001 -8.862055659862e-001  6.024562140091e-002 -3.628931885580e-002 
8.00000000e+007  5.075668371014e-002 -5.628933730955e-002 -4.817541782399e-001 -7.803833424654e-001  6.936576898188e-002 -4.016683245605e-002 -3.391870967685e-003  6.045480571351e-003 
                -4.818276852796e-001 -7.806752416557e-001  5.673102634378e-002 -4.822431351488e-002 -3.491884584636e-003  5.058888321319e-003  6.852683861965e-002 -4.199870852535e-002 
                 6.914579280040e-002 -4.005779897853e-002 -3.497356998283e-003  5.040507814354e-003  5.117192474461e-002 -5.770355052276e-002 -4.859580851203e-001 -7.819046466816e-001 
                -3.491463141830e-003  6.040547502441e-003  6.851321776829e-002 -4.215465858046e-002 -4.859960322499e-001 -7.815419393183e-001  5.371811762005e-002 -4.570388100981e-002 
9.00000000e+007  3.938403039373e-002 -6.317519343814e-002 -6.625512672738e-001 -6.268270066915e-001  5.516642915115e-002 -5.361943542887e-002 -2.305094556311e-003  6.882230967242e-003 
                -6.627043773783e-001 -6.267058827230e-001  4.688995062183e-002 -5.883824181332e-002 -2.812162980035e-003  5.718991901876e-003  5.372474431010e-002 -5.536525496929e-002 
                 5.493987574441e-002 -5.349235882991e-002 -2.769189861205e-003  5.749914043932e-003  3.726359096529e-002 -6.900087817101e-002 -6.666231723530e-001 -6.257357556757e-001 
                -2.315174657793e-003  6.880956786953e-003  5.370019547745e-002 -5.544058857628e-002 -6.668641734823e-001 -6.255987649850e-001  4.496024338049e-002 -5.322764451079e-002 
1.00000000e+008  2.900702711938e-002 -6.704833550280e-002 -7.964684655326e-001 -4.330523590020e-001  3.744616804155e-002 -5.996423029610e-002 -1.077141391364e-003  7.576818291540e-003 
                -7.960769480661e-001 -4.328534002105e-001  3.339059806976e-002 -6.567399474330e-002 -2.166491298195e-003  6.351679813628e-003  3.546422388570e-002 -6.136411369184e-002 
                 3.733630093569e-002 -5.988073247247e-002 -2.177423522445e-003  6.374364501964e-003  2.339790017559e-002 -7.048282409476e-002 -7.986270872488e-001 -4.317164986753e-001 
                -1.132308894554e-003  7.514165127765e-003  3.527375315304e-002 -6.142075853894e-002 -7.985391817310e-001 -4.318391334390e-001  3.694478677179e-002 -6.074075704490e-002 
1.10000000e+008  1.876007178034e-002 -6.926543746918e-002 -8.765455496325e-001 -2.139094382688e-001  1.952854862551e-002 -5.870085420657e-002  3.922657079348e-004  8.142556822914e-003 
                -8.765915305149e-001 -2.136491519607e-001  1.884721152279e-002 -6.805336760819e-002 -1.339900282866e-003  7.365111216538e-003  1.711903402629e-002 -5.943471102821e-002 
                 1.947178689090e-002 -5.852055314396e-002 -1.387963183545e-003  7.411150936334e-003  1.000440133457e-002 -7.151360747394e-002 -8.789898688425e-001 -2.123357459339e-001 
                 3.036985887894e-004  8.164353444527e-003  1.705101192818e-002 -5.945530166625e-002 -8.791825217888e-001 -2.125602515761e-001  2.597898973345e-002 -6.660693753979e-002 
1.20000000e+008  1.015765006865e-002 -6.841201933201e-002 -8.982975782728e-001  1.780420021181e-002  4.766743806335e-003 -5.038502012984e-002  1.943943307550e-003  8.498506246220e-003 
                -8.980363425381e-001  1.811351544402e-002  6.623308204116e-003 -6.445760620310e-002 -2.366084523221e-004  8.240603888083e-003  2.624826688851e-003 -5.050984427667e-002 
                 4.715783773161e-003 -5.027230283570e-002 -1.786862562354e-004  8.236061875789e-003 -1.951642910797e-003 -6.544790767434e-002 -9.003140177313e-001  2.052729354885e-002 
                 1.969868176352e-003  8.583872574066e-003  2.586873708463e-003 -5.050779702597e-002 -9.009643828846e-001  2.002972147617e-002  1.494958764488e-002 -6.936429685543e-002 
1.30000000e+008  3.986746229805e-003 -6.565707226567e-002 -8.598195052193e-001  2.470322773515e-001 -4.099666133620e-003 -3.739595081814e-002  3.975119487888e-003  8.928043125849e-003 
                -8.594713330556e-001  2.470743735306e-001 -1.896873613261e-003 -5.827513626321e-002  1.382596615328e-003  9.362463489877e-003 -6.039691264844e-003 -3.716139570072e-002 
                -4.101679941210e-003 -3.728607437985e-002  1.377733274397e-003  9.396534468868e-003 -6.855489696580e-003 -5.797306607400e-002 -8.610413218521e-001  2.501673133567e-001 
                 4.032446243450e-003  8.862761775750e-003 -6.004188030786e-003 -3.709725227144e-002 -8.619459110885e-001  2.501970761897e-001  3.883928733919e-003 -6.863920234523e-002 
1.40000000e+008 -3.058816382814e-004 -6.189024412154e-002 -7.639989483507e-001  4.574594431685e-001 -5.812697304885e-003 -2.277080479565e-002  6.422823728921e-003  8.769505992199e-003 
                -7.635481085303e-001  4.575270960815e-001 -7.884906549698e-003 -5.120142843420e-002  3.793754777127e-003  1.029844889734e-002 -7.167535980198e-003 -2.214809854079e-002 
                -5.835310900077e-003 -2.271649758874e-002  3.781575187185e-003  1.032742432089e-002 -8.239079664643e-003 -5.450783150410e-002 -7.644006453933e-001  4.610968439832e-001 
                 6.400430787667e-003  8.756152221854e-003 -7.236585988147e-003 -2.217192261028e-002 -7.653366228496e-001  4.613669390638e-001 -5.470472755056e-003 -6.395044787831e-002 
1.50000000e+008 -3.035085576811e-003 -5.808475834108e-002 -6.177257022614e-001  6.350529405133e-001 -4.844003459209e-004 -9.817056448084e-003  9.128936788854e-003  7.934200533457e-003 
                -6.173290488635e-001  6.351024832996e-001 -1.285427139677e-002 -4.279726980613e-002  6.871576518405e-003  1.050042080832e-002 -1.104483434887e-003 -9.283529358065e-003 
                -5.041313078023e-004 -9.753980757849e-003  6.879550845032e-003  1.056328623917e-002 -1.225212402002e-002 -5.378924935336e-002 -6.171458616770e-001  6.388405680731e-001 
                 9.140335342169e-003  7.895084156150e-003 -1.102724509225e-003 -9.265611672024e-003 -6.177980899420e-001  6.399623279108e-001 -1.271863183507e-002 -5.621619137974e-002 
1.60000000e+008 -5.267817804152e-003 -5.439551999551e-002 -4.322642602248e-001  7.684791040961e-001  1.049110063732e-002 -1.443920848814e-003  1.203181276566e-002  6.205878307879e-003 
                -4.317804968394e-001  7.684332996677e-001 -1.571160078995e-002 -3.168325781256e-002  1.051923467598e-002  9.669159520432e-003  1.062675120756e-002 -1.477700840050e-003 
                 1.049378878366e-002 -1.503861018801e-003  1.056418270622e-002  9.680820458493e-003 -1.937504866238e-002 -5.016867438283e-002 -4.307463758922e-001  7.726929116284e-001 
                 1.203167956221e-002  6.201772562122e-003  1.059824796919e-002 -1.472120913376e-003 -4.303587278518e-001  7.736047048531e-001 -1.713859861305e-002 -4.658646540124e-002 
1.70000000e+008 -6.563024868767e-003 -5.102263177818e-002 -2.190605186053e-001  8.496487000781e-001  2.453415514900e-002  2.036077724128e-004  1.475376907984e-002  3.366598719612e-003 
                -2.187867576953e-001  8.494001532153e-001 -1.356752449512e-002 -1.972181845253e-002  1.432012795989e-002  7.456202801181e-003  2.492774675827e-002 -7.816914709551e-004 
                 2.446133598302e-002  1.802385250016e-004  1.435951213598e-002  7.478001819779e-003 -2.356052146187e-002 -4.122544259853e-002 -2.162887017799e-001  8.534774316474e-001 
                 1.476990075627e-002  3.336194785977e-003  2.492347331715e-002 -8.212471062673e-004 -2.161737148394e-001  8.538686420501e-001 -1.856307316546e-002 -3.637968222310e-002 
1.80000000e+008 -6.977382630426e-003 -4.893203920366e-002  6.105747594999e-003  8.723386323248e-001  3.825923806809e-002 -5.411127650424e-003  1.677747172754e-002 -5.944631456895e-004 
                 6.121536575457e-003  8.718745102398e-001 -5.476730087847e-003 -1.082995491888e-002  1.760839598865e-002  3.656316002040e-003  3.851382198003e-002 -7.684663004348e-003 
                 3.815939040021e-002 -5.459782805574e-003  1.768006153138e-002  3.605739902792e-003 -2.016783247482e-002 -3.216873571136e-002  1.042958894969e-002  8.747328253240e-001 
                 1.675703624975e-002 -6.062673705724e-004  3.855575469929e-002 -7.699368062913e-003  1.033750374720e-002  8.754869709597e-001 -1.673942783478e-002 -2.696464722121e-002 
1.90000000e+008 -6.569396572797e-003 -4.894509663561e-002  2.276088181424e-001  8.367933605854e-001  4.870953342592e-002 -1.757147909055e-002  1.761906444809e-002 -5.617794671752e-003 
                 2.277652287109e-001  8.366927633189e-001  6.074595782018e-003 -9.651450776183e-003  1.967644241199e-002 -1.631916054045e-003  4.821354923465e-002 -2.102637560775e-002 
                 4.859644188990e-002 -1.760488013710e-002  1.968356270831e-002 -1.678506511127e-003 -1.296144426220e-002 -3.078681826103e-002  2.322291498731e-001  8.378932463919e-001 
                 1.760392685223e-002 -5.615892037893e-003  4.817103211492e-002 -2.108372723177e-002  2.332232486017e-001  8.379222681059e-001 -1.147872123237e-002 -2.033949320582e-002 
2.00000000e+008 -6.450644417883e-003 -5.149655704602e-002  4.310492094050e-001  7.459311559865e-001  5.341717720458e-002 -3.437143551694e-002  1.678439151002e-002 -1.116193758441e-002 
                 4.311304870747e-001  7.457097674536e-001  1.562531266071e-002 -1.650214168692e-002  1.991191486466e-002 -7.750118413445e-003  5.142964503037e-002 -3.881830543765e-002 
                 5.321409865495e-002 -3.436163617091e-002  1.995636788372e-002 -7.779263582722e-003 -1.026499586081e-002 -3.325998683069e-002  4.350027522086e-001  7.461489153111e-001 
                 1.672995942842e-002 -1.122183062265e-002  5.135686112582e-002 -3.879521342000e-002  4.350519852482e-001  7.460148688435e-001 -3.701654314902e-003 -1.909145265120e-002 
2.10000000e+008 -7.089679478895e-003 -5.635580222911e-002  6.034847781106e-001  6.079041134569e-001  5.073171679800e-002 -5.308311633399e-002  1.392371399745e-002 -1.686107581138e-002 
                 6.030600898238e-001  6.078831948580e-001  2.128046683021e-002 -2.763108950961e-002  1.797159638492e-002 -1.428123763465e-002  4.687073307657e-002 -5.794314549509e-002 
                 5.060648455683e-002 -5.299945396699e-002  1.802243437925e-002 -1.430083592122e-002 -8.074163118234e-003 -3.772155439454e-002  6.077013141545e-001  6.078392765064e-001 
                 1.395485585067e-002 -1.683011488930e-002  4.679531578488e-002 -5.792952944391e-002  6.074207817453e-001  6.082976913920e-001  2.643849441403e-003 -2.346049746129e-002 
2.20000000e+008 -1.026342596709e-002 -6.204078935199e-002  7.342669755713e-001  4.316675631796e-001  4.025253502135e-002 -7.063354888688e-002  8.724972510405e-003 -2.176211778970e-002 
                 7.337640635707e-001  4.317218040778e-001  2.103733785390e-002 -4.155535278422e-002  1.334084990413e-002 -2.020261923206e-002  3.412908884577e-002 -7.509424405744e-002 
                 4.007232811559e-002 -7.055544203246e-002  1.344471747191e-002 -2.020335111066e-002 -1.153098616279e-002 -4.334648398790e-002  7.383705824355e-001  4.309298192025e-001 
                 8.690667545758e-003 -2.173168936390e-002  3.404732533986e-002 -7.516757943556e-002  7.384784687600e-001  4.317720981929e-001  6.090640540519e-003 -3.112569282452e-002 
2.30000000e+008 -1.595292853608e-002 -6.541896488881e-002  8.143723402098e-001  2.304400759529e-001  2.305370215908e-002 -8.260848649964e-002  1.450732505345e-003 -2.352130377334e-002 
                 8.142959647232e-001  2.302839109872e-001  1.471630016890e-002 -5.233218467959e-002  6.498808141462e-003 -2.312206341874e-002  1.455132041254e-002 -8.577953776543e-002 
                 2.294247773935e-002 -8.246092628742e-002  6.599870675591e-003 -2.320676272265e-002 -1.686560724084e-002 -4.353313552224e-002  8.193294264214e-001  2.286650401788e-001 
                 1.505657647801e-003 -2.349079641152e-002  1.447975244860e-002 -8.576426559487e-002  8.199750436752e-001  2.289631601674e-001  6.075494757878e-003 -3.918986255969e-002 
2.40000000e+008 -2.013390516380e-002 -6.720692543819e-002  8.433384908470e-001  1.660764462387e-002  3.884990818598e-003 -8.868394560088e-002 -4.319199903269e-003 -2.352477919547e-002 
                 8.431218989268e-001  1.663554465702e-002  7.788278600426e-003 -6.041203903563e-002  8.267261762781e-004 -2.426592103814e-002 -6.364158649334e-003 -8.948998905289e-002 
                 3.903066858546e-003 -8.857104333865e-002  8.612487949074e-004 -2.436578362198e-002 -1.809035632262e-002 -4.275534625191e-002  8.472954320382e-001  1.279267412461e-002 
                -4.327967079307e-003 -2.350283184981e-002 -6.382978507610e-003 -8.945255717626e-002  8.482334389560e-001  1.312650989068e-002  3.830750285768e-003 -4.734327149921e-002 
2.50000000e+008 -2.664566850739e-002 -6.901591635843e-002  8.165931739583e-001 -1.971880126701e-001 -1.746703721182e-002 -8.908169225515e-002 -1.087726807447e-002 -2.268501715309e-002 
                 8.163215412991e-001 -1.975456267981e-001 -3.531808506498e-003 -6.739051578430e-002 -5.815397068534e-003 -2.466161797075e-002 -2.854562743371e-002 -8.679434646574e-002 
                -1.746160611425e-002 -8.891563027899e-002 -5.827453638866e-003 -2.471014625790e-002 -1.897494226436e-002 -4.572197037600e-002  8.192507058014e-001 -2.023650387787e-001 
                -1.090207221181e-002 -2.263648485274e-002 -2.862118325251e-002 -8.681473832378e-002  8.203883588053e-001 -2.024631342756e-001 -3.113082828009e-003 -5.421669808561e-002 
2.60000000e+008 -3.524206771491e-002 -6.806437594056e-002  7.361820689890e-001 -3.967285085233e-001 -3.829350097261e-002 -8.201899845317e-002 -1.737853990448e-002 -1.951717294560e-002 
                 7.361177133437e-001 -3.965549077627e-001 -1.980784667596e-002 -6.921445845387e-002 -1.258181157787e-002 -2.270382933381e-002 -4.907148018657e-002 -7.648221017530e-002 
                -3.831827664644e-002 -8.181643294502e-002 -1.261109734788e-002 -2.273332867581e-002 -2.420247358453e-002 -5.098960321860e-002  7.378487192627e-001 -4.025143928897e-001 
                -1.744278435282e-002 -1.941409475152e-002 -4.912144316737e-002 -7.644299867323e-002  7.385541878655e-001 -4.030065320840e-001 -1.394882588502e-002 -5.655006880128e-002 
2.70000000e+008 -4.483059811919e-002 -6.435191260775e-002  6.084882186232e-001 -5.681329316215e-001 -5.557174391817e-002 -6.848459171882e-002 -2.266472597692e-002 -1.432457819243e-002 
                 6.082496162499e-001 -5.682184625933e-001 -3.852590091583e-002 -6.299989424296e-002 -1.836772415006e-002 -1.874357912853e-002 -6.488912648698e-002 -5.992987705441e-002 
                -5.549659021158e-002 -6.830602137358e-002 -1.839610036036e-002 -1.885569252325e-002 -3.531193801310e-002 -5.321950953136e-002  6.082019119439e-001 -5.741431347572e-001 
                -2.270544607871e-002 -1.428061789164e-002 -6.487215921887e-002 -5.985242838250e-002  6.087394334724e-001 -5.747027176652e-001 -2.634539647305e-002 -5.314310218342e-002 
2.80000000e+008 -5.424125232728e-002 -5.785198661212e-002  4.423547028155e-001 -7.011949852830e-001 -6.720143824899e-002 -5.076889230885e-002 -2.619940662928e-002 -7.942998254665e-003 
                 4.422884193978e-001 -7.014082227994e-001 -5.483058464940e-002 -4.765856576740e-002 -2.269527074335e-002 -1.352947781276e-002 -7.401997206057e-002 -3.966333653580e-002 
                -6.700817138717e-002 -5.057180506317e-002 -2.284650520317e-002 -1.360191607831e-002 -4.807793864873e-002 -4.768898551331e-002  4.407705702305e-001 -7.070986762452e-001 
                -2.613472744775e-002 -7.852741064868e-003 -7.400208749028e-002 -3.961200595880e-002  4.408447402306e-001 -7.077122836153e-001 -3.806455896300e-002 -4.438408714790e-002 
2.90000000e+008 -6.211621609563e-002 -4.940983038791e-002  2.495760111164e-001 -7.873888535477e-001 -7.227885877348e-002 -3.109310314851e-002 -2.781483959200e-002 -9.482929249456e-004 
                 2.487645978060e-001 -7.877808645197e-001 -6.312523063270e-002 -2.641982245527e-002 -2.547875547250e-002 -7.669333971908e-003 -7.591813974319e-002 -1.843777868761e-002 
                -7.213410167717e-002 -3.096138529246e-002 -2.560496894535e-002 -7.578639344069e-003 -5.501405599282e-002 -3.622764530326e-002  2.451491243040e-001 -7.931074227455e-001 
                -2.775161356075e-002 -9.242476803512e-004 -7.586073926760e-002 -1.837321838366e-002  2.453983063433e-001 -7.928607773152e-001 -4.691239377835e-002 -3.130253853899e-002 
3.00000000e+008 -6.713995026438e-002 -4.014781516467e-002  4.089012740329e-002 -8.223340075547e-001 -7.088364681355e-002 -1.188430660206e-002 -2.768436550025e-002  6.055974558136e-003 
                 4.061958907085e-002 -8.218518114653e-001 -6.145235190483e-002 -5.578124269356e-003 -2.688918954207e-002 -1.670019991079e-003 -7.081023539958e-002  1.048659456746e-003 
                -7.072600558252e-002 -1.182057457744e-002 -2.693211829178e-002 -1.672501215944e-003 -5.686990496413e-002 -2.644307089524e-002  3.628319260515e-002 -8.253949059683e-001 
                -2.761322497974e-002  6.030215768811e-003 -7.078208011003e-002  9.897758824411e-004  3.667943575193e-002 -8.254754890928e-001 -5.043694843685e-002 -1.565955224068e-002 
3.10000000e+008 -6.914705192902e-002 -3.119975656195e-002 -1.688612718298e-001 -8.028623630860e-001 -6.372515848297e-002  4.401738897337e-003 -2.606998034235e-002  1.279592927261e-002 
                -1.688809145371e-001 -8.025261162817e-001 -5.260771362265e-002  1.177779976895e-002 -2.727143402361e-002  4.405622691035e-003 -6.022817335030e-002  1.635009476690e-002 
                -6.360745266742e-002  4.436734064791e-003 -2.726959579075e-002  4.372993186489e-003 -5.610211575927e-002 -1.631768783661e-002 -1.733217834882e-001 -8.050897189714e-001 
