! Tyco Electronics Strada Whisper System
! THRU_C8C9
!! 
!! SYSTEM DESCRIPTION: Daughtercard-Connector-Backplane-Connector-Daughtercard
!! PCB DESCRIPTION: BP: 250mil, 26 lyrs, Megtron6, bottom layer route, no stub, 6-9-6mil 30" traces; DC: 150mil, 16 lyrs, Megtron6, bottom layer route, no stub, 6-9-6mil 5" traces
!! CONNECTOR DESCRIPTION: STRADA Whisper, Right Angle Receptacle to Vertical Header
!! MODEL DESCRIPTION: Tyco Electronics System 4-port S-parameter 
!! MODEL STATUS: Developmental
!! MODEL GEOMETRY: Channel Model
!! MODEL FREQUENCY RANGE: DC to 40 GHz in 10 MHz frequency steps
!! MODEL EDGE RATE LIMITATION: 12.5 ps (Using conservative 0.5/Fmax rule of thumb)
!! 
!! TIME-DOMAIN TRANSFORM CAUTIONS: 
!! 1.) Do not simulate transient edge rates faster than the number listed above.  Edge rates faster than this number 
!!     contain significant spectral content at frequencies above the model's highest frequency. 
!! 2.) Even when simulating edge rates that are slower than the number listed above, be aware that the best time 
!!     resolution possible with a direct iFFT is (1 / 2Fmax).  As a result, time resolution is typically not adequate 
!!     for most time-domain simulations unless tricks such as windowing are used to minimize leakage and aliasing. 
!! 3.) Because the model has a uniform frequency step, a direct iFFT will result in an impulse that that has a time 
!!     length given by either (1 / Fstep) or (1 / 2Fstep), depending on the transform being used.  Care has been taken 
!!     in selecting the frequency step to ensure a settled impulse response for the model.  Therefore, convolution with 
!!     the model's impulse response should present no issues.  However, if directly concatenating s-parameter models 
!!     in the frequency domain a user must either interpolate necessary interim frequencies or complete impulse response 
!!     zero-padding.  Impulse response zero-padding is more difficult, but more accurate. 
!! 
!! PORT DEFINITIONS: 
!! Port   1  ----->  Side A                     C8                    Side B  <-----  Port   2
!! Port   3  ----->  Side A                     C9                    Side B  <-----  Port   4
!! 
!!!!!!!!!!!!!!!!!!!!!!!!!!!!!!!!!!!!!!!!!!!!!!!!!!!!!!!!!!!!!!!!!!!!!!!!!!!!!!!!!!!!!!!!!!!!!!!!!!!!!!!!!!!!!!!!!!!!!!!!
!
! Created Wed Apr 27 14:09:06 2011
# hz S ma R 50
! 4 Port Network Data from SP1.SP block
! freq  magS11  angS11  magS12  angS12  magS13  angS13  magS14  angS14  
!       magS21  angS21  magS22  angS22  magS23  angS23  magS24  angS24  
!       magS31  angS31  magS32  angS32  magS33  angS33  magS34  angS34  
!       magS41  angS41  magS42  angS42  magS43  angS43  magS44  angS44  
!     
                 0      0.0396631728     1.1202029e-023        0.959733785   -4.63200807e-025      0.00339363321    1.30922358e-022      0.00331034199                180
                      0.959733785   -4.63200807e-025       0.0396631728     1.1202029e-023      0.00331034199                180      0.00339363321    1.30922358e-022
                    0.00339363321    1.30922358e-022      0.00331034199                180       0.0396886871    1.11945479e-023        0.959709885   -4.63199992e-025
                    0.00331034199                180      0.00339363321    1.30922358e-022        0.959709885   -4.63199992e-025       0.0396886871    1.11945479e-023

          10000000      0.0869298389           13.70947        0.925011984        -26.6732821       0.0344670052         57.6716818       0.0043100828         153.942741
                      0.925011984        -26.6732821       0.0869298389           13.70947       0.0043100828         153.942741       0.0344670052         57.6716818
                     0.0344670052         57.6716818       0.0043100828         153.942741       0.0867821175         13.7016657        0.923762024        -26.6739888
                     0.0043100828         153.942741       0.0344670052         57.6716818        0.923762024        -26.6739888       0.0867821175         13.7016657

          20000000       0.108549992       -0.477709627        0.910337887        -52.0790237       0.0605356505         36.5126068      0.00564330153         108.339018
                      0.910337887        -52.0790237        0.108549992       -0.477709627      0.00564330153         108.339018       0.0605356505         36.5126068
                     0.0605356505         36.5126068      0.00564330153         108.339018        0.108334157       -0.472471296        0.909112212        -52.0765049
                    0.00564330153         108.339018       0.0605356505         36.5126068        0.909112212        -52.0765049        0.108334157       -0.472471296

          30000000       0.114378465        -18.2867467        0.899833295        -77.2322168       0.0745574868         13.9674752      0.00665918095         57.7020005
                      0.899833295        -77.2322168        0.114378465        -18.2867467      0.00665918095         57.7020005       0.0745574868         13.9674752
                     0.0745574868         13.9674752      0.00665918095         57.7020005        0.114110174        -18.2667988        0.898626182        -77.2275599
                    0.00665918095         57.7020005       0.0745574868         13.9674752        0.898626182        -77.2275599        0.114110174        -18.2667988

          40000000       0.104613251        -37.2502594        0.892272355        -102.302908       0.0741999836        -8.38411604      0.00720794431         5.71955063
                      0.892272355        -102.302908        0.104613251        -37.2502594      0.00720794431         5.71955063       0.0741999836        -8.38411604
                     0.0741999836        -8.38411604      0.00720794431         5.71955063        0.104308056        -37.2126702        0.891078612        -102.296385
                    0.00720794431         5.71955063       0.0741999836        -8.38411604        0.891078612        -102.296385        0.104308056        -37.2126702

          50000000      0.0810751524        -55.9297671          0.8863524         -127.39584        0.059567951        -29.3580238      0.00716430724        -46.3255188
                        0.8863524         -127.39584       0.0810751524        -55.9297671      0.00716430724        -46.3255188        0.059567951        -29.3580238
                      0.059567951        -29.3580238      0.00716430724        -46.3255188       0.0807476378        -55.8651363        0.885168914          -127.3875
                    0.00716430724        -46.3255188        0.059567951        -29.3580238        0.885168914          -127.3875       0.0807476378        -55.8651363

          60000000      0.0478619834        -70.7721681        0.880441685        -152.541974       0.0338570005        -43.9884026      0.00643773943        -97.5994288
                      0.880441685        -152.541974       0.0478619834        -70.7721681      0.00643773943        -97.5994288       0.0338570005        -43.9884026
                     0.0338570005        -43.9884026      0.00643773943        -97.5994288       0.0475290154        -70.6268366        0.879268237        -152.531774
                    0.00643773943        -97.5994288       0.0338570005        -43.9884026        0.879268237        -152.531774       0.0475290154        -70.6268366

          70000000      0.0154441358        -47.7025598        0.873313717        -177.691321        0.012007547         9.11571521      0.00503544279        -146.799291
                      0.873313717        -177.691321       0.0154441358        -47.7025598      0.00503544279        -146.799291        0.012007547         9.11571521
                      0.012007547         9.11571521      0.00503544279        -146.799291       0.0152631176        -46.5363549        0.872152455        -177.679172
                    0.00503544279        -146.799291        0.012007547         9.11571521        0.872152455        -177.679172       0.0152631176        -46.5363549

          80000000      0.0320382237         23.3047268        0.864910837         157.245527        0.036765293         49.3131024      0.00312382233         170.129235
                      0.864910837         157.245527       0.0320382237         23.3047268      0.00312382233         170.129235        0.036765293         49.3131024
                      0.036765293         49.3131024      0.00312382233         170.129235       0.0323384409         23.6864719        0.863764787         157.259741
                    0.00312382233         170.129235        0.036765293         49.3131024        0.863764787         157.259741       0.0323384409         23.6864719

          90000000      0.0585684351         13.1932629         0.85630761         132.326682       0.0628898181         34.3595629      0.00130000456         161.658735
                       0.85630761         132.326682       0.0585684351         13.1932629      0.00130000456         161.658735       0.0628898181         34.3595629
                     0.0628898181         34.3595629      0.00130000456         161.658735       0.0588899966         13.3958349        0.855179481         132.343083
                    0.00130000456         161.658735       0.0628898181         34.3595629        0.855179481         132.343083       0.0588899966         13.3958349

         100000000      0.0737434438         -5.1095673        0.848863207          107.53598       0.0787445425         14.3607814      0.00216986731        -165.740976
                      0.848863207          107.53598       0.0737434438         -5.1095673      0.00216986731        -165.740976       0.0787445425         14.3607814
                     0.0787445425         14.3607814      0.00216986731        -165.740976       0.0740587104        -4.92028246         0.84775531         107.554646
                    0.00216986731        -165.740976       0.0787445425         14.3607814         0.84775531         107.554646       0.0740587104        -4.92028246

         110000000      0.0751084376        -24.8190946        0.843306637         82.7950872         0.08131654        -6.51374556      0.00413371449         161.157709
                      0.843306637         82.7950872       0.0751084376        -24.8190946      0.00413371449         161.157709         0.08131654        -6.51374556
                       0.08131654        -6.51374556      0.00413371449         161.157709       0.0754048058        -24.6087819        0.842221405         82.8159691
                    0.00413371449         161.157709         0.08131654        -6.51374556        0.842221405         82.8159691       0.0754048058        -24.6087819

         120000000      0.0630983981        -44.1086098        0.839318994         58.0122939       0.0700589973        -26.8170142      0.00569390504          117.22586
                      0.839318994         58.0122939       0.0630983981        -44.1086098      0.00569390504          117.22586       0.0700589973        -26.8170142
                     0.0700589973        -26.8170142      0.00569390504          117.22586       0.0633609372        -43.8489838        0.838258998         58.0351553
                    0.00569390504          117.22586       0.0700589973        -26.8170142        0.838258998         58.0351553       0.0633609372        -43.8489838

         130000000      0.0405137275        -59.7770781        0.835727308         33.1378109        0.047007106         -43.671577      0.00650410581         71.3363671
                      0.835727308         33.1378109       0.0405137275        -59.7770781      0.00650410581         71.3363671        0.047007106         -43.671577
                      0.047007106         -43.671577      0.00650410581         71.3363671       0.0407313416        -59.4059387        0.834694186         33.1622477
                    0.00650410581         71.3363671        0.047007106         -43.671577        0.834694186         33.1622477       0.0407313416        -59.4059387

         140000000      0.0149285002        -46.1319212        0.831232285         8.19648141       0.0190586794        -36.6676178      0.00638935655         25.8445385
                      0.831232285         8.19648141       0.0149285002        -46.1319212      0.00638935655         25.8445385       0.0190586794        -36.6676178
                     0.0190586794        -36.6676178      0.00638935655         25.8445385       0.0151609213        -45.5889734         0.83022516         8.22207237
                    0.00638935655         25.8445385       0.0190586794        -36.6676178         0.83022516         8.22207237       0.0151609213        -45.5889734

         150000000      0.0244869741         29.0396934        0.825300572        -16.7285583       0.0255378024         39.6847082      0.00536173237        -17.0066258
                      0.825300572        -16.7285583       0.0244869741         29.0396934      0.00536173237        -17.0066258       0.0255378024         39.6847082
                     0.0255378024         39.6847082      0.00536173237        -17.0066258       0.0246838166         28.7535216        0.824315569        -16.7020248
                    0.00536173237        -17.0066258       0.0255378024         39.6847082        0.824315569        -16.7020248       0.0246838166         28.7535216

         160000000      0.0477829012         21.6477761        0.818527418        -41.5566737       0.0535679707         35.1555367      0.00369526246        -51.7274354
                      0.818527418        -41.5566737       0.0477829012         21.6477761      0.00369526246        -51.7274354       0.0535679707         35.1555367
                     0.0535679707         35.1555367      0.00369526246        -51.7274354       0.0480740147          21.584742         0.81755949        -41.5290452
                    0.00369526246        -51.7274354       0.0535679707         35.1555367         0.81755949        -41.5290452       0.0480740147          21.584742

         170000000      0.0623607252         3.67590163        0.812140564        -66.2668041       0.0744324225          17.363003      0.00228266583        -58.5893526
                      0.812140564        -66.2668041       0.0623607252         3.67590163      0.00228266583        -58.5893526       0.0744324225          17.363003
                     0.0744324225          17.363003      0.00228266583        -58.5893526       0.0627978775         3.70676999        0.811186932        -66.2376142
                    0.00228266583        -58.5893526       0.0744324225          17.363003        0.811186932        -66.2376142       0.0627978775         3.70676999

         180000000      0.0649638595        -16.0518634        0.807124984        -90.9075254       0.0834938716        -2.76357153      0.00305369061        -49.1814061
                      0.807124984        -90.9075254       0.0649638595        -16.0518634      0.00305369061        -49.1814061       0.0834938716        -2.76357153
                     0.0834938716        -2.76357153      0.00305369061        -49.1814061       0.0655512344        -15.9606336        0.806187975        -90.8762537
                    0.00305369061        -49.1814061       0.0834938716        -2.76357153        0.806187975        -90.8762537       0.0655512344        -15.9606336

         190000000      0.0553074727        -35.4841964        0.803627119        -115.562088       0.0792848079        -23.1919879      0.00498447993        -74.9356697
                      0.803627119        -115.562088       0.0553074727        -35.4841964      0.00498447993        -74.9356697       0.0792848079        -23.1919879
                     0.0792848079        -23.1919879      0.00498447993        -74.9356697       0.0560256532        -35.3454273        0.802714402        -115.528505
                    0.00498447993        -74.9356697       0.0792848079        -23.1919879        0.802714402        -115.528505       0.0560256532        -35.3454273

         200000000      0.0353632241         -51.507461        0.800900121        -140.295802       0.0626349086        -42.3858587      0.00662002202         -113.22986
                      0.800900121        -140.295802       0.0353632241         -51.507461      0.00662002202         -113.22986       0.0626349086        -42.3858587
                     0.0626349086        -42.3858587      0.00662002202         -113.22986       0.0361718061        -51.3804493        0.800021552        -140.260213
                    0.00662002202         -113.22986       0.0626349086        -42.3858587        0.800021552        -140.260213       0.0361718061        -51.3804493

         210000000      0.0116691913        -34.2210873        0.797777265        -165.113905       0.0370825786        -55.4881007      0.00744847237          -154.6048
                      0.797777265        -165.113905       0.0116691913        -34.2210873      0.00744847237          -154.6048       0.0370825786        -55.4881007
                     0.0370825786        -55.4881007      0.00744847237          -154.6048       0.0123597244        -36.3294739        0.796939319        -165.077124
                    0.00744847237          -154.6048       0.0370825786        -55.4881007        0.796939319        -165.077124       0.0123597244        -36.3294739

         220000000      0.0244205594         44.8604999        0.793461521         170.043014       0.0144411769        -21.2818655      0.00726813698         164.317741
                      0.793461521         170.043014       0.0244205594         44.8604999      0.00726813698         164.317741       0.0144411769        -21.2818655
                     0.0144411769        -21.2818655      0.00726813698         164.317741       0.0239037161         43.5997478          0.7926624         170.080026
                    0.00726813698         164.317741       0.0144411769        -21.2818655          0.7926624         170.080026       0.0239037161         43.5997478

         230000000      0.0484384311          34.295932        0.788093298         145.256142       0.0314146649         30.0454428      0.00615136221         126.596307
                      0.788093298         145.256142       0.0484384311          34.295932      0.00615136221         126.596307       0.0314146649         30.0454428
                     0.0314146649         30.0454428      0.00615136221         126.596307       0.0479653526         33.8967447        0.787322611         145.292796
                    0.00615136221         126.596307       0.0314146649         30.0454428        0.787322611         145.292796       0.0479653526         33.8967447

         240000000      0.0643122178         15.4403833        0.782600361         120.569204       0.0545287581         19.7935687      0.00452621699         98.3671345
                      0.782600361         120.569204       0.0643122178         15.4403833      0.00452621699         98.3671345       0.0545287581         19.7935687
                     0.0545287581         19.7935687      0.00452621699         98.3671345       0.0640385741         15.2386992        0.781844437         120.605639
                    0.00452621699         98.3671345       0.0545287581         19.7935687        0.781844437         120.605639       0.0640385741         15.2386992

         250000000      0.0685748275         -4.6710935        0.777988816         95.9608372       0.0690075187         1.61483755      0.00350840631         90.9959477
